
**** 07/20/05 17:26:45 ******* PSpice 10.3.0 (Jan 2004) ******* ID# 1111111111 
 ** Profile: "SCHEMATIC1-control"  [ C:\ORCAD\ORCAD_10.3\proyecto\motor-pspicefiles\schematic1\control.sim ] 


 ****     CIRCUIT DESCRIPTION


******************************************************************************




** Creating circuit file "control.cir" 
** WARNING: THIS AUTOMATICALLY GENERATED FILE MAY BE OVERWRITTEN BY SUBSEQUENT SIMULATIONS

*Libraries: 
* Profile Libraries :
.INC "C:\ORCAD\ORCAD_10.3\proyecto\motor-pspicefiles\schematic1\control\control_profile.inc" 
* Local Libraries :
* From [PSPICE NETLIST] section of C:\OrCAD\OrCAD_10.3\tools\PSpice\PSpice.ini file:

**** INCLUDING control_profile.inc ****
.STMLIB ".\control.stl" 

**** RESUMING control.cir ****
.lib "nom.lib" 

*Analysis directives: 
.TRAN  0 1s 0 
.PROBE V(alias(*)) I(alias(*)) W(alias(*)) D(alias(*)) NOISE(alias(*)) 
.INC "..\SCHEMATIC1.net" 



**** INCLUDING SCHEMATIC1.net ****
* source MOTOR
X_U4         12V N05554 N05454 RFP30N06LE/HA
X_U2         N05438 N05554 0 RFP30N06LE/HA
D_D4         0 N05454 D10D1 
X_U5         N05554 N05498 0 RFP30N06LE/HA
D_D1         N05438 12V D10D1 
X_U3         N05454 N05498 0 RFP30N06LE/HA
U_DSTM1         STIM(1,0) $G_DPWR $G_DGND N05498 IO_STM STIMULUS=control
V_V1         12V 0 12Vdc
D_D2         N05454 12V D10D1 
R_R2         N05554 VCC  1K  
X_U1         12V N05498 N05438 RFP30N06LE/HA
D_D3         0 N05438 D10D1 
V_V2         VCC 0 5Vdc
L_L2         N05438 N055181  2.1m  
R_R1         N055181 N05454  0.55  

**** RESUMING control.cir ****
.END


**** Generated AtoD and DtoA Interfaces ****

*
* Analog/Digital interface for node N05498
*
* Moving U_DSTM1:OUT1 from analog node N05498 to new digital node N05498$DtoA
X$N05498_DtoA1
+ N05498$DtoA
+ N05498
+ $G_DPWR
+ $G_DGND
+ DtoA_STM
+       PARAMS: DRVH=   0      DRVL=   0      CAPACITANCE=   0     
*
* Analog/Digital interface power supply subcircuits
*
X$DIGIFPWR 0 DIGIFPWR


* C:\ORCAD\ORCAD_10.3\proyecto\motor-PSpiceFiles\SCHEMATIC1\control\control.stl written on Wed Jul 20 12:11:47 2005
* by Stimulus Editor -- Serial Number: 1111111111 -- Version 10.3.0
;!Stimulus Get
;! control Digital
;!Ok
;!Plot Axis_Settings
;!Xrange 0s 1s
;!AutoUniverse
;!XminRes 1ns
;!YminRes 1n
;!Ok
.STIMULUS control STIM (1, 1)
+   +0s 0
+   497.674419ms 1

**** 07/20/05 17:26:45 ******* PSpice 10.3.0 (Jan 2004) ******* ID# 1111111111 
 ** Profile: "SCHEMATIC1-control"  [ C:\ORCAD\ORCAD_10.3\proyecto\motor-pspicefiles\schematic1\control.sim ] 


 ****     Diode MODEL PARAMETERS


******************************************************************************




               D10D1           X_U4.DBDMOD     X_U4.DBKMOD     X_U4.DESD1MOD   
          IS   10.010000E-21  380.000000E-15   10.000000E-15   10.000000E-15 
         ISR  195.300000E-06                                                 
          BV  100                                              13.54         
         IBV  100.000000E-06                                                 
          RS    1.000000E-03     .0112           .182          45.5          
          TT    5.000000E-09   38.400000E-09                                 
         CJO    1.000000E-12    1.050000E-09                                 
          VJ     .75                                                         
           M     .3333                                                       
        TRS1                    1.610000E-03    7.500000E-03                 
        TRS2                    6.080000E-06  -40.000000E-06                 


               X_U4.DESD2MOD   X_U4.DPLCAPMOD  X_U2.DBDMOD     X_U2.DBKMOD     
          IS   10.000000E-15    1.000000E-30  380.000000E-15   10.000000E-15 
           N                   10                                            
          BV   11.46                                                         
          RS                                     .0112           .182        
          TT                                   38.400000E-09                 
         CJO                  591.000000E-12    1.050000E-09                 
        TBV1 -757.600000E-06                                                 
        TBV2   -3.000000E-06                                                 
        TRS1                                    1.610000E-03    7.500000E-03 
        TRS2                                    6.080000E-06  -40.000000E-06 


               X_U2.DESD1MOD   X_U2.DESD2MOD   X_U2.DPLCAPMOD  X_U5.DBDMOD     
          IS   10.000000E-15   10.000000E-15    1.000000E-30  380.000000E-15 
           N                                   10                            
          BV   13.54           11.46                                         
          RS   45.5                                              .0112       
          TT                                                   38.400000E-09 
         CJO                                  591.000000E-12    1.050000E-09 
        TBV1                 -757.600000E-06                                 
        TBV2                   -3.000000E-06                                 
        TRS1                                                    1.610000E-03 
        TRS2                                                    6.080000E-06 


               X_U5.DBKMOD     X_U5.DESD1MOD   X_U5.DESD2MOD   X_U5.DPLCAPMOD  
          IS   10.000000E-15   10.000000E-15   10.000000E-15    1.000000E-30 
           N                                                   10            
          BV                   13.54           11.46                         
          RS     .182          45.5                                          
         CJO                                                  591.000000E-12 
        TBV1                                 -757.600000E-06                 
        TBV2                                   -3.000000E-06                 
        TRS1    7.500000E-03                                                 
        TRS2  -40.000000E-06                                                 


               X_U3.DBDMOD     X_U3.DBKMOD     X_U3.DESD1MOD   X_U3.DESD2MOD   
          IS  380.000000E-15   10.000000E-15   10.000000E-15   10.000000E-15 
          BV                                   13.54           11.46         
          RS     .0112           .182          45.5                          
          TT   38.400000E-09                                                 
         CJO    1.050000E-09                                                 
        TBV1                                                 -757.600000E-06 
        TBV2                                                   -3.000000E-06 
        TRS1    1.610000E-03    7.500000E-03                                 
        TRS2    6.080000E-06  -40.000000E-06                                 


               X_U3.DPLCAPMOD  X_U1.DBDMOD     X_U1.DBKMOD     X_U1.DESD1MOD   
          IS    1.000000E-30  380.000000E-15   10.000000E-15   10.000000E-15 
           N   10                                                            
          BV                                                   13.54         
          RS                     .0112           .182          45.5          
          TT                   38.400000E-09                                 
         CJO  591.000000E-12    1.050000E-09                                 
        TRS1                    1.610000E-03    7.500000E-03                 
        TRS2                    6.080000E-06  -40.000000E-06                 


               X_U1.DESD2MOD   X_U1.DPLCAPMOD  
          IS   10.000000E-15    1.000000E-30 
           N                   10            
          BV   11.46                         
         CJO                  591.000000E-12 
        TBV1 -757.600000E-06                 
        TBV2   -3.000000E-06                 


**** 07/20/05 17:26:45 ******* PSpice 10.3.0 (Jan 2004) ******* ID# 1111111111 
 ** Profile: "SCHEMATIC1-control"  [ C:\ORCAD\ORCAD_10.3\proyecto\motor-pspicefiles\schematic1\control.sim ] 


 ****     MOSFET MODEL PARAMETERS


******************************************************************************




               X_U4.MOSMOD     X_U2.MOSMOD     X_U5.MOSMOD     X_U3.MOSMOD     
               NMOS            NMOS            NMOS            NMOS            
       LEVEL    1               1               1               1            
           L    1.000000E-06    1.000000E-06    1.000000E-06    1.000000E-06 
           W    1.000000E-06    1.000000E-06    1.000000E-06    1.000000E-06 
         VTO    1.94            1.94            1.94            1.94         
          KP  139.2           139.2           139.2           139.2          
       GAMMA    0               0               0               0            
         PHI     .6              .6              .6              .6          
      LAMBDA    0               0               0               0            
          IS    1.000000E-30    1.000000E-30    1.000000E-30    1.000000E-30 
          JS    0               0               0               0            
           N   10              10              10              10            
          PB     .8              .8              .8              .8          
        PBSW     .8              .8              .8              .8          
          CJ    0               0               0               0            
        CJSW    0               0               0               0            
        CGSO    0               0               0               0            
        CGDO    0               0               0               0            
        CGBO    0               0               0               0            
         TOX    1               1               1               1            
          XJ    0               0               0               0            
       UCRIT   10.000000E+03   10.000000E+03   10.000000E+03   10.000000E+03 
      DIOMOD    1               1               1               1            
         VFB    0               0               0               0            
        LETA    0               0               0               0            
        WETA    0               0               0               0            
          U0    0               0               0               0            
        TEMP    0               0               0               0            
         VDD    0               0               0               0            
       XPART    0               0               0               0            


               X_U1.MOSMOD     
               NMOS            
       LEVEL    1            
           L    1.000000E-06 
           W    1.000000E-06 
         VTO    1.94         
          KP  139.2          
       GAMMA    0            
         PHI     .6          
      LAMBDA    0            
          IS    1.000000E-30 
          JS    0            
           N   10            
          PB     .8          
        PBSW     .8          
          CJ    0            
        CJSW    0            
        CGSO    0            
        CGDO    0            
        CGBO    0            
         TOX    1            
          XJ    0            
       UCRIT   10.000000E+03 
      DIOMOD    1            
         VFB    0            
        LETA    0            
        WETA    0            
          U0    0            
        TEMP    0            
         VDD    0            
       XPART    0            


**** 07/20/05 17:26:45 ******* PSpice 10.3.0 (Jan 2004) ******* ID# 1111111111 
 ** Profile: "SCHEMATIC1-control"  [ C:\ORCAD\ORCAD_10.3\proyecto\motor-pspicefiles\schematic1\control.sim ] 


 ****     Resistor MODEL PARAMETERS


******************************************************************************




               X_U4.RBKMOD     X_U4.RDSMOD     X_U4.RSLVCMOD   X_U4.RVTOMOD    
           R    1               1               1               1            
         TC1    1.070000E-03    5.380000E-03    1.750000E-03   -2.150000E-03 
         TC2 -303.000000E-09   16.400000E-06    3.900000E-06   -5.430000E-06 


               X_U2.RBKMOD     X_U2.RDSMOD     X_U2.RSLVCMOD   X_U2.RVTOMOD    
           R    1               1               1               1            
         TC1    1.070000E-03    5.380000E-03    1.750000E-03   -2.150000E-03 
         TC2 -303.000000E-09   16.400000E-06    3.900000E-06   -5.430000E-06 


               X_U5.RBKMOD     X_U5.RDSMOD     X_U5.RSLVCMOD   X_U5.RVTOMOD    
           R    1               1               1               1            
         TC1    1.070000E-03    5.380000E-03    1.750000E-03   -2.150000E-03 
         TC2 -303.000000E-09   16.400000E-06    3.900000E-06   -5.430000E-06 


               X_U3.RBKMOD     X_U3.RDSMOD     X_U3.RSLVCMOD   X_U3.RVTOMOD    
           R    1               1               1               1            
         TC1    1.070000E-03    5.380000E-03    1.750000E-03   -2.150000E-03 
         TC2 -303.000000E-09   16.400000E-06    3.900000E-06   -5.430000E-06 


               X_U1.RBKMOD     X_U1.RDSMOD     X_U1.RSLVCMOD   X_U1.RVTOMOD    
           R    1               1               1               1            
         TC1    1.070000E-03    5.380000E-03    1.750000E-03   -2.150000E-03 
         TC2 -303.000000E-09   16.400000E-06    3.900000E-06   -5.430000E-06 


**** 07/20/05 17:26:45 ******* PSpice 10.3.0 (Jan 2004) ******* ID# 1111111111 
 ** Profile: "SCHEMATIC1-control"  [ C:\ORCAD\ORCAD_10.3\proyecto\motor-pspicefiles\schematic1\control.sim ] 


 ****     Voltage Controlled Switch MODEL PARAMETERS


******************************************************************************




               X_U4.S1AMOD     X_U4.S1BMOD     X_U4.S2AMOD     X_U4.S2BMOD     
         RON   10.000000E-06   10.000000E-06   10.000000E-06   10.000000E-06 
        ROFF     .1              .1              .1              .1          
         VON   -4.05           -1.5            -2.2             2.8          
        VOFF   -1.5            -4.05            2.8            -2.2          


               X_U2.S1AMOD     X_U2.S1BMOD     X_U2.S2AMOD     X_U2.S2BMOD     
         RON   10.000000E-06   10.000000E-06   10.000000E-06   10.000000E-06 
        ROFF     .1              .1              .1              .1          
         VON   -4.05           -1.5            -2.2             2.8          
        VOFF   -1.5            -4.05            2.8            -2.2          


               X_U5.S1AMOD     X_U5.S1BMOD     X_U5.S2AMOD     X_U5.S2BMOD     
         RON   10.000000E-06   10.000000E-06   10.000000E-06   10.000000E-06 
        ROFF     .1              .1              .1              .1          
         VON   -4.05           -1.5            -2.2             2.8          
        VOFF   -1.5            -4.05            2.8            -2.2          


               X_U3.S1AMOD     X_U3.S1BMOD     X_U3.S2AMOD     X_U3.S2BMOD     
         RON   10.000000E-06   10.000000E-06   10.000000E-06   10.000000E-06 
        ROFF     .1              .1              .1              .1          
         VON   -4.05           -1.5            -2.2             2.8          
        VOFF   -1.5            -4.05            2.8            -2.2          


               X_U1.S1AMOD     X_U1.S1BMOD     X_U1.S2AMOD     X_U1.S2BMOD     
         RON   10.000000E-06   10.000000E-06   10.000000E-06   10.000000E-06 
        ROFF     .1              .1              .1              .1          
         VON   -4.05           -1.5            -2.2             2.8          
        VOFF   -1.5            -4.05            2.8            -2.2          


**** 07/20/05 17:26:45 ******* PSpice 10.3.0 (Jan 2004) ******* ID# 1111111111 
 ** Profile: "SCHEMATIC1-control"  [ C:\ORCAD\ORCAD_10.3\proyecto\motor-pspicefiles\schematic1\control.sim ] 


 ****     Digital Input MODEL PARAMETERS


******************************************************************************




               DINSTM          
      S0NAME 0               
       S0TSW  500.000000E-12 
       S0RLO     .5          
       S0RHI    1.000000E+03 
      S1NAME 1               
       S1TSW  500.000000E-12 
       S1RLO    1.000000E+03 
       S1RHI     .5          
      S2NAME X               
       S2TSW  500.000000E-12 
       S2RLO     .429        
       S2RHI    1.16         
      S3NAME R               
       S3TSW  500.000000E-12 
       S3RLO     .429        
       S3RHI    1.16         
      S4NAME F               
       S4TSW  500.000000E-12 
       S4RLO     .429        
       S4RHI    1.16         
      S5NAME Z               
       S5TSW  500.000000E-12 
       S5RLO    1.000000E+06 
       S5RHI    1.000000E+06 


**** 07/20/05 17:26:45 ******* PSpice 10.3.0 (Jan 2004) ******* ID# 1111111111 
 ** Profile: "SCHEMATIC1-control"  [ C:\ORCAD\ORCAD_10.3\proyecto\motor-pspicefiles\schematic1\control.sim ] 


 ****     Digital IO  MODEL PARAMETERS


******************************************************************************




               IO_STM          
        DRVL    0            
        DRVH    0            
       DtoA1 DtoA_STM        
       DtoA2 DtoA_STM        
       DtoA3 DtoA_STM        
       DtoA4 DtoA_STM        
       TPWRT  100.000000E+03 


**** 07/20/05 17:26:45 ******* PSpice 10.3.0 (Jan 2004) ******* ID# 1111111111 
 ** Profile: "SCHEMATIC1-control"  [ C:\ORCAD\ORCAD_10.3\proyecto\motor-pspicefiles\schematic1\control.sim ] 


 ****     INITIAL TRANSIENT SOLUTION       TEMPERATURE =   27.000 DEG C


******************************************************************************



 NODE   VOLTAGE     NODE   VOLTAGE     NODE   VOLTAGE     NODE   VOLTAGE


(  12V)   12.0000  (  VCC)    5.0000  (N05438)     .1864 (N05454)    2.6928     

(N05498)     .0025 (N05554)    5.0000 (X_U1.5)   12.0000 (X_U1.6)     .0025     

(X_U1.7)     .1864 (X_U1.8)     .1864 (X_U1.9)     .0025 (X_U2.5)     .1864     

(X_U2.6)    5.0000 (X_U2.7)    0.0000 (X_U2.8)     .1212 (X_U2.9)    4.9844     

(X_U3.5)    2.6928 (X_U3.6)     .0025 (X_U3.7)-4.059E-15 (X_U3.8) 134.8E-15     

(X_U3.9)     .0025 (X_U4.5)   12.0000 (X_U4.6)    5.0000 (X_U4.7)    2.6928     

(X_U4.8)    2.8140 (X_U4.9)    5.0000 (X_U5.5)    5.0000 (X_U5.6)     .0025     

(X_U5.7)    0.0000 (X_U5.8) 198.1E-15 (X_U5.9)     .0025 ($G_DGND)    0.0000    

($G_DPWR)    5.0000                   (N055181)     .1864                       

(X_U1.10)     .1864                   (X_U1.11)   75.5760                       

(X_U1.12)     .0025                   (X_U1.13)     .0025                       

(X_U1.14)   12.0000                   (X_U1.15)     .0025                       

(X_U1.16)   12.0000                   (X_U1.17)    1.1864                       

(X_U1.18)     .1864                   (X_U1.19)    -.8136                       

(X_U1.20)     .0025                   (X_U1.21)     .5025                       

(X_U1.50)   12.0000                   (X_U1.51)   12.0000                       

(X_U1.91)     .0594                   (X_U2.10)     .1212                       

(X_U2.11)   75.3740                   (X_U2.12)    5.0000                       

(X_U2.13)    5.0000                   (X_U2.14)     .1864                       

(X_U2.15)    5.0000                   (X_U2.16)     .1324                       

