
**** 08/24/06 21:31:45 ******** PSpice 9.2.3 (Jan 2002) ******* ID# 1111111111 
 ** Profile: "SCHEMATIC1-bias"  [ F:\PAS\simulacion-schematic1-bias.sim ] 


 ****     CIRCUIT DESCRIPTION


******************************************************************************




** Creating circuit file "simulacion-schematic1-bias.sim.cir" 
** WARNING: THIS AUTOMATICALLY GENERATED FILE MAY BE OVERWRITTEN BY SUBSEQUENT SIMULATIONS

*Libraries: 
* Local Libraries :
* From [PSPICE NETLIST] section of C:\Cadence\PSD_14.2\tools\PSpice\PSpice.ini file:
.lib "nom.lib" 

*Analysis directives: 
.TRAN  0 20ms 0 
.PROBE V(alias(*)) I(alias(*)) W(alias(*)) D(alias(*)) NOISE(alias(*)) 
.INC ".\simulacion-SCHEMATIC1.net" 



**** INCLUDING simulacion-SCHEMATIC1.net ****
* source SIMULACION
R_R1         0 N00698  100  
L_L1         N00377 N00698  150uH  
M_M1         VCC N05403 N00377 N00377 IRF530
C_C1         0 N00698  2200u  
V_V2         N02430 0  
+PULSE 0 40 1u 0.1u 0.1u 50u 100u
V_V1         VCC 0 36
D_D3         0 N00377 D1N4148 
R_R3         N02430 N05403  1k  

**** RESUMING simulacion-schematic1-bias.sim.cir ****
.END

**** 08/24/06 21:31:45 ******** PSpice 9.2.3 (Jan 2002) ******* ID# 1111111111 
 ** Profile: "SCHEMATIC1-bias"  [ F:\PAS\simulacion-schematic1-bias.sim ] 


 ****     Diode MODEL PARAMETERS


******************************************************************************




               D1N4148         
          IS    2.682000E-09 
           N    1.836        
         ISR    1.565000E-09 
         IKF     .04417      
          BV  100            
         IBV  100.000000E-06 
          RS     .5664       
          TT   11.540000E-09 
         CJO    4.000000E-12 
          VJ     .5          
           M     .3333       


**** 08/24/06 21:31:45 ******** PSpice 9.2.3 (Jan 2002) ******* ID# 1111111111 
 ** Profile: "SCHEMATIC1-bias"  [ F:\PAS\simulacion-schematic1-bias.sim ] 


 ****     MOSFET MODEL PARAMETERS


******************************************************************************




               IRF530          
               NMOS            
       LEVEL    3            
           L    2.000000E-06 
           W     .68         
         VTO    3.191        
          KP   20.730000E-06 
       GAMMA    0            
         PHI     .6          
      LAMBDA    0            
          RD     .03869      
          RS     .05853      
          RG    4.63         
         RDS  444.400000E+03 
          IS    1.861000E-12 
          JS    0            
          PB     .8          
        PBSW     .8          
         CBD    1.151000E-09 
          CJ    0            
        CJSW    0            
          TT  125.000000E-09 
        CGSO  876.700000E-12 
        CGDO  261.400000E-12 
        CGBO    0            
         TOX  100.000000E-09 
          XJ    0            
       UCRIT   10.000000E+03 
       DELTA    0            
         ETA    0            
      DIOMOD    1            
         VFB    0            
        LETA    0            
        WETA    0            
          U0    0            
        TEMP    0            
         VDD    0            
       XPART    0            


**** 08/24/06 21:31:45 ******** PSpice 9.2.3 (Jan 2002) ******* ID# 1111111111 
 ** Profile: "SCHEMATIC1-bias"  [ F:\PAS\simulacion-schematic1-bias.sim ] 


 ****     INITIAL TRANSIENT SOLUTION       TEMPERATURE =   27.000 DEG C


******************************************************************************



 NODE   VOLTAGE     NODE   VOLTAGE     NODE   VOLTAGE     NODE   VOLTAGE


(  VCC)   36.0000  (N00377)     .0081 (N00698)     .0081 (N02430)    0.0000     

(N05403)    0.0000 




    VOLTAGE SOURCE CURRENTS
    NAME         CURRENT

    V_V2         0.000E+00
    V_V1        -8.099E-05

    TOTAL POWER DISSIPATION   2.92E-03  WATTS



          JOB CONCLUDED

**** 08/24/06 21:31:45 ******** PSpice 9.2.3 (Jan 2002) ******* ID# 1111111111 
 ** Profile: "SCHEMATIC1-bias"  [ F:\PAS\simulacion-schematic1-bias.sim ] 


 ****     JOB STATISTICS SUMMARY


******************************************************************************



  Total job time (using Solver 1)   =        4.81
